
T0418 000:323 SEGGER J-Link V5.02f Log File (0000ms, 0261ms total)
T0418 000:323 DLL Compiled: Oct  2 2015 20:51:34 (0000ms, 0261ms total)
T0418 000:323 Logging started @ 2017-04-17 22:30 (0000ms, 0261ms total)
T0418 000:323 JLINK_SetWarnOutHandler(...) (0000ms, 0261ms total)
T0418 000:323 JLINK_OpenEx(...)
Firmware: J-Link ARM-OB STM32 compiled Aug 22 2012 19:52:04
Hardware: V7.00
S/N: 20090928
Feature(s): RDI,FlashDL,FlashBP,JFlash,GDBFull  returns O.K. (0269ms, 0530ms total)
T0418 000:592 JLINK_SetErrorOutHandler(...) (0000ms, 0530ms total)
T0418 000:592 JLINK_ExecCommand("ProjectFile = "C:\Users\zach\Desktop\开放实验室管理系统V2.0\下位机\STM32\Project\RVMDK（uv4）\JLinkSettings.ini"", ...)  returns 0x00 (0002ms, 0532ms total)
T0418 000:625 JLINK_ExecCommand("Device = STM32F103ZE", ...)Device "STM32F103ZE" selected.  returns 0x00 (0023ms, 0555ms total)
T0418 000:648 JLINK_ExecCommand("DisableConnectionTimeout", ...)  returns 0x01 (0000ms, 0555ms total)
T0418 000:648 JLINK_GetHardwareVersion()  returns 0x11170 (0000ms, 0555ms total)
T0418 000:648 JLINK_GetDLLVersion()  returns 50206 (0000ms, 0555ms total)
T0418 000:648 JLINK_GetFirmwareString(...) (0000ms, 0555ms total)
T0418 000:665 JLINK_GetDLLVersion()  returns 50206 (0000ms, 0555ms total)
T0418 000:665 JLINK_GetCompileDateTime() (0000ms, 0555ms total)
T0418 000:668 JLINK_GetFirmwareString(...) (0000ms, 0555ms total)
T0418 000:672 JLINK_GetHardwareVersion()  returns 0x11170 (0000ms, 0555ms total)
T0418 000:687 JLINK_TIF_Select(JLINKARM_TIF_SWD)  returns 0x00 (0000ms, 0555ms total)
T0418 000:687 JLINK_SetSpeed(5000) (0001ms, 0556ms total)
T0418 000:688 JLINK_GetId() >0x108 TIF>Found SWD-DP with ID 0x1BA01477 >0x0D TIF> >0x28 TIF> >0x0D TIF> >0x28 TIF> >0x0D TIF> >0x21 TIF> >0x0D TIF> >0x28 TIF> >0x0D TIF> >0x28 TIF> >0x0D TIF> >0x28 TIF> >0x0D TIF> >0x21 TIF> >0x0D TIF> >0x21 TIF> >0x0D TIF> >0x28 TIF> >0x0D TIF> >0x21 TIF> >0x0D TIF> >0x21 TIF> >0x0D TIF> >0x28 TIF> >0x0D TIF> >0x28 TIF> >0x0D TIF> >0x28 TIF> >0x0D TIF> >0x21 TIF> >0x0D TIF> >0x21 TIF> >0x0D TIF> >0x28 TIF> >0x0D TIF> >0x21 TIF> >0x0D TIF> >0x21 TIF> >0x108 TIF>
Found SWD-DP with ID 0x1BA01477 >0x0D TIF> >0x21 TIF> >0x0D TIF> >0x28 TIF> >0x0D TIF> >0x28 TIF> >0x0D TIF> >0x21 TIF> >0x0D TIF> >0x28 TIF> >0x0D TIF> >0x21 TIF> >0x0D TIF> >0x21 TIF> >0x0D TIF> >0x21 TIF> >0x0D TIF> >0x21 TIF> >0x0D TIF> >0x28 TIF> >0x0D TIF> >0x28 TIF> >0x0D TIF> >0x21 TIF> >0x0D TIF> >0x28 TIF> >0x0D TIF> >0x28 TIF> >0x0D TIF> >0x28 TIF> >0x0D TIF> >0x21 TIF> >0x0D TIF> >0x21 TIF> >0x0D TIF> >0x28 TIF> >0x0D TIF> >0x21 TIF> >0x0D TIF> >0x21 TIF>Found Cortex-M3 r1p1, Little endian.
 -- CPU_ReadMem(4 bytes @ 0xE000EDF0) -- CPU_WriteMem(4 bytes @ 0xE000EDF0) -- CPU_ReadMem(4 bytes @ 0xE0002000)FPUnit: 6 code (BP) slots and 2 literal slots -- CPU_ReadMem(4 bytes @ 0xE000EDFC) -- CPU_WriteMem(4 bytes @ 0xE000EDFC) -- CPU_ReadMem(4 bytes @ 0xE0001000) -- CPU_WriteMem(4 bytes @ 0xE0001000) -- CPU_ReadMem(4 bytes @ 0xE000ED88) -- CPU_WriteMem(4 bytes @ 0xE000ED88) -- CPU_ReadMem(4 bytes @ 0xE000ED88) -- CPU_WriteMem(4 bytes @ 0xE000ED88)CoreSight components:ROMTbl 0 @ E00FF000
 -- CPU_ReadMem(16 bytes @ 0xE00FF000) -- CPU_ReadMem(16 bytes @ 0xE000EFF0) -- CPU_ReadMem(16 bytes @ 0xE000EFE0)ROMTbl 0 [0]: FFF0F000, CID: B105E00D, PID: 001BB000 SCS -- CPU_ReadMem(16 bytes @ 0xE0001FF0) -- CPU_ReadMem(16 bytes @ 0xE0001FE0)ROMTbl 0 [1]: FFF02000, CID: B105E00D, PID: 001BB002 DWT -- CPU_ReadMem(16 bytes @ 0xE0002FF0) -- CPU_ReadMem(16 bytes @ 0xE0002FE0)ROMTbl 0 [2]: FFF03000, CID: B105E00D, PID: 000BB003 FPB -- CPU_ReadMem(16 bytes @ 0xE0000FF0)
 -- CPU_ReadMem(16 bytes @ 0xE0000FE0)ROMTbl 0 [3]: FFF01000, CID: B105E00D, PID: 001BB001 ITM -- CPU_ReadMem(16 bytes @ 0xE00FF010) -- CPU_ReadMem(16 bytes @ 0xE0040FF0) -- CPU_ReadMem(16 bytes @ 0xE0040FE0)ROMTbl 0 [4]: FFF41000, CID: B105900D, PID: 001BB923 TPIU-Lite -- CPU_ReadMem(16 bytes @ 0xE0041FF0) -- CPU_ReadMem(16 bytes @ 0xE0041FE0)ROMTbl 0 [5]: FFF42000, CID: B105900D, PID: 101BB924 ETM-M3 >0x0D TIF> >0x21 TIF>  returns 0x1BA01477 (0078ms, 0634ms total)
T0418 000:766 JLINK_GetDLLVersion()  returns 50206 (0000ms, 0634ms total)
T0418 000:766 JLINK_CORE_GetFound()  returns 0x30000FF (0000ms, 0634ms total)
T0418 000:766 JLINK_GetDebugInfo(0x100) -- Value=0xE00FF003  returns 0x00 (0000ms, 0634ms total)
T0418 000:771 JLINK_GetDebugInfo(0x100) -- Value=0xE00FF003  returns 0x00 (0000ms, 0634ms total)
T0418 000:771 JLINK_GetDebugInfo(0x101) -- Value=0xE0041000  returns 0x00 (0000ms, 0634ms total)
T0418 000:771 JLINK_GetDebugInfo(0x102) -- Value=0x00000000  returns 0x00 (0000ms, 0634ms total)
T0418 000:771 JLINK_GetDebugInfo(0x103) -- Value=0xE0040000  returns 0x00 (0000ms, 0634ms total)
T0418 000:771 JLINK_GetDebugInfo(0x104) -- Value=0xE0000000  returns 0x00 (0000ms, 0634ms total)
T0418 000:771 JLINK_GetDebugInfo(0x105) -- Value=0xE0001000  returns 0x00 (0000ms, 0634ms total)
T0418 000:771 JLINK_GetDebugInfo(0x106) -- Value=0xE0002000  returns 0x00 (0000ms, 0634ms total)
T0418 000:771 JLINK_GetDebugInfo(0x107) -- Value=0xE000E000  returns 0x00 (0000ms, 0634ms total)
T0418 000:771 JLINK_GetDebugInfo(0x10C) -- Value=0xE000EDF0  returns 0x00 (0000ms, 0634ms total)
T0418 000:771 JLINK_ReadMemU32(0xE000ED00, 0x0001 Items, ...) -- CPU is running -- CPU_ReadMem(4 bytes @ 0xE000ED00) - Data: 31 C2 1F 41  returns 0x01 (0001ms, 0635ms total)
T0418 000:772 JLINK_SetResetType(JLINKARM_RESET_TYPE_NORMAL)  returns JLINKARM_RESET_TYPE_NORMAL (0000ms, 0635ms total)
T0418 000:772 JLINK_Reset() -- CPU is running -- CPU_WriteMem(4 bytes @ 0xE000EDF0) -- CPU is running -- CPU_WriteMem(4 bytes @ 0xE000EDFC) >0x35 TIF> -- CPU is running -- CPU_WriteMem(4 bytes @ 0xE000ED0C) -- CPU is running -- CPU_ReadMem(4 bytes @ 0xE000EDF0) -- CPU is running -- CPU_ReadMem(4 bytes @ 0xE000EDF0) -- CPU is running -- CPU_WriteMem(4 bytes @ 0xE000EDF0) -- CPU is running -- CPU_WriteMem(4 bytes @ 0xE000EDFC) -- CPU is running -- CPU_ReadMem(4 bytes @ 0xE000EDF0)
 -- CPU_WriteMem(4 bytes @ 0xE0002000) -- CPU_ReadMem(4 bytes @ 0xE000EDFC) -- CPU_ReadMem(4 bytes @ 0xE0001000) (0019ms, 0654ms total)
T0418 000:791 JLINK_Halt()  returns 0x00 (0000ms, 0654ms total)
T0418 000:791 JLINK_IsHalted()  returns TRUE (0000ms, 0654ms total)
T0418 000:791 JLINK_ReadMemU32(0xE000EDF0, 0x0001 Items, ...) -- CPU_ReadMem(4 bytes @ 0xE000EDF0) - Data: 03 00 03 00  returns 0x01 (0001ms, 0655ms total)
T0418 000:792 JLINK_WriteU32(0xE000EDF0, 0xA05F0003) -- CPU_WriteMem(4 bytes @ 0xE000EDF0)  returns 0x00 (0001ms, 0656ms total)
T0418 000:793 JLINK_WriteU32(0xE000EDFC, 0x01000000) -- CPU_WriteMem(4 bytes @ 0xE000EDFC)  returns 0x00 (0000ms, 0656ms total)
T0418 000:801 JLINK_GetHWStatus(...)  returns 0x00 (0001ms, 0657ms total)
T0418 000:809 JLINK_GetNumBPUnits(Type = 0xFFFFFF00)  returns 0x06 (0000ms, 0657ms total)
T0418 000:809 JLINK_GetNumBPUnits(Type = 0xF0)  returns 0x2000 (0000ms, 0657ms total)
T0418 000:809 JLINK_GetNumWPUnits()  returns 0x04 (0000ms, 0657ms total)
T0418 000:814 JLINK_GetSpeed()  returns 0xFA0 (0000ms, 0657ms total)
T0418 000:819 JLINK_ReadMemU32(0xE000E004, 0x0001 Items, ...) -- CPU_ReadMem(4 bytes @ 0xE000E004) - Data: 01 00 00 00  returns 0x01 (0001ms, 0658ms total)
T0418 000:820 JLINK_ReadMemU32(0xE000E004, 0x0001 Items, ...) -- CPU_ReadMem(4 bytes @ 0xE000E004) - Data: 01 00 00 00  returns 0x01 (0000ms, 0658ms total)
T0418 000:820 JLINK_WriteMem(0xE0001000, 0x001C Bytes, ...) - Data: 01 00 00 00 00 00 00 00 00 00 00 00 00 00 00 00 ... -- CPU_WriteMem(28 bytes @ 0xE0001000)  returns 0x1C (0001ms, 0659ms total)
T0418 000:821 JLINK_ReadMem (0xE0001000, 0x001C Bytes, ...) -- CPU_ReadMem(28 bytes @ 0xE0001000) - Data: 01 00 00 40 00 00 00 00 00 00 00 00 00 00 00 00 ...  returns 0x00 (0001ms, 0660ms total)
T0418 000:822 JLINK_Halt()  returns 0x00 (0000ms, 0660ms total)
T0418 000:822 JLINK_IsHalted()  returns TRUE (0000ms, 0660ms total)
T0418 000:824 JLINK_WriteMem(0x20000000, 0x0164 Bytes, ...) - Data: 00 BE 0A E0 0D 78 2D 06 68 40 08 24 40 00 00 D3 ... -- CPU_WriteMem(356 bytes @ 0x20000000)  returns 0x164 (0006ms, 0666ms total)
T0418 000:830 JLINK_WriteReg(R0, 0x08000000)  returns 0x00 (0000ms, 0666ms total)
T0418 000:830 JLINK_WriteReg(R1, 0x00B71B00)  returns 0x00 (0000ms, 0666ms total)
T0418 000:830 JLINK_WriteReg(R2, 0x00000001)  returns 0x00 (0000ms, 0666ms total)
T0418 000:830 JLINK_WriteReg(R3, 0x00000000)  returns 0x00 (0000ms, 0666ms total)
T0418 000:830 JLINK_WriteReg(R4, 0x00000000)  returns 0x00 (0000ms, 0666ms total)
T0418 000:830 JLINK_WriteReg(R5, 0x00000000)  returns 0x00 (0000ms, 0666ms total)
T0418 000:830 JLINK_WriteReg(R6, 0x00000000)  returns 0x00 (0000ms, 0666ms total)
T0418 000:830 JLINK_WriteReg(R7, 0x00000000)  returns 0x00 (0000ms, 0666ms total)
T0418 000:830 JLINK_WriteReg(R8, 0x00000000)  returns 0x00 (0000ms, 0666ms total)
T0418 000:830 JLINK_WriteReg(R9, 0x20000160)  returns 0x00 (0000ms, 0666ms total)
T0418 000:830 JLINK_WriteReg(R10, 0x00000000)  returns 0x00 (0000ms, 0666ms total)
T0418 000:830 JLINK_WriteReg(R11, 0x00000000)  returns 0x00 (0000ms, 0666ms total)
T0418 000:830 JLINK_WriteReg(R12, 0x00000000)  returns 0x00 (0000ms, 0666ms total)
T0418 000:830 JLINK_WriteReg(R13 (SP), 0x20000800)  returns 0x00 (0000ms, 0666ms total)
T0418 000:830 JLINK_WriteReg(R14, 0x20000001)  returns 0x00 (0000ms, 0666ms total)
T0418 000:830 JLINK_WriteReg(R15 (PC), 0x20000038)  returns 0x00 (0000ms, 0666ms total)
T0418 000:830 JLINK_WriteReg(XPSR, 0x01000000)  returns 0x00 (0000ms, 0666ms total)
T0418 000:830 JLINK_WriteReg(MSP, 0x20000800)  returns 0x00 (0000ms, 0666ms total)
T0418 000:830 JLINK_WriteReg(PSP, 0x20000800)  returns 0x00 (0000ms, 0666ms total)
T0418 000:830 JLINK_WriteReg(CFBP, 0x00000000)  returns 0x00 (0000ms, 0666ms total)
T0418 000:830 JLINK_SetBPEx(Addr = 0x20000000, Type = 0xFFFFFFF2) -- CPU_ReadMem(2 bytes @ 0x20000000)  returns 0x00000001 (0001ms, 0667ms total)
T0418 000:831 JLINK_Go() -- CPU_WriteMem(2 bytes @ 0x20000000) -- CPU_ReadMem(4 bytes @ 0xE0001000) -- CPU_WriteMem(4 bytes @ 0xE0002008) -- CPU_WriteMem(4 bytes @ 0xE000200C) -- CPU_WriteMem(4 bytes @ 0xE0002010) -- CPU_WriteMem(4 bytes @ 0xE0002014) -- CPU_WriteMem(4 bytes @ 0xE0002018) -- CPU_WriteMem(4 bytes @ 0xE000201C) -- CPU_WriteMem(4 bytes @ 0xE0001004) (0007ms, 0674ms total)
T0418 000:838 JLINK_IsHalted() -- CPU_ReadMem(2 bytes @ 0x20000000)  returns TRUE (0004ms, 0678ms total)
T0418 000:842 JLINK_ReadReg(R15 (PC))  returns 0x20000000 (0000ms, 0674ms total)
T0418 000:842 JLINK_ClrBPEx(BPHandle = 0x00000001)  returns 0x00 (0000ms, 0674ms total)
T0418 000:842 JLINK_ReadReg(R0)  returns 0x00000000 (0000ms, 0674ms total)
T0418 000:842 JLINK_WriteReg(R0, 0x08000000)  returns 0x00 (0000ms, 0674ms total)
T0418 000:842 JLINK_WriteReg(R1, 0x00B71B00)  returns 0x00 (0000ms, 0674ms total)
T0418 000:842 JLINK_WriteReg(R2, 0x00000001)  returns 0x00 (0000ms, 0674ms total)
T0418 000:842 JLINK_WriteReg(R3, 0x00000000)  returns 0x00 (0000ms, 0674ms total)
T0418 000:842 JLINK_WriteReg(R4, 0x00000000)  returns 0x00 (0000ms, 0674ms total)
T0418 000:842 JLINK_WriteReg(R5, 0x00000000)  returns 0x00 (0000ms, 0674ms total)
T0418 000:842 JLINK_WriteReg(R6, 0x00000000)  returns 0x00 (0000ms, 0674ms total)
T0418 000:842 JLINK_WriteReg(R7, 0x00000000)  returns 0x00 (0000ms, 0674ms total)
T0418 000:842 JLINK_WriteReg(R8, 0x00000000)  returns 0x00 (0000ms, 0674ms total)
T0418 000:842 JLINK_WriteReg(R9, 0x20000160)  returns 0x00 (0000ms, 0674ms total)
T0418 000:842 JLINK_WriteReg(R10, 0x00000000)  returns 0x00 (0000ms, 0674ms total)
T0418 000:842 JLINK_WriteReg(R11, 0x00000000)  returns 0x00 (0000ms, 0674ms total)
T0418 000:842 JLINK_WriteReg(R12, 0x00000000)  returns 0x00 (0000ms, 0674ms total)
T0418 000:842 JLINK_WriteReg(R13 (SP), 0x20000800)  returns 0x00 (0000ms, 0674ms total)
T0418 000:842 JLINK_WriteReg(R14, 0x20000001)  returns 0x00 (0000ms, 0674ms total)
T0418 000:842 JLINK_WriteReg(R15 (PC), 0x2000007C)  returns 0x00 (0000ms, 0674ms total)
T0418 000:842 JLINK_WriteReg(XPSR, 0x01000000)  returns 0x00 (0000ms, 0674ms total)
T0418 000:842 JLINK_WriteReg(MSP, 0x20000800)  returns 0x00 (0000ms, 0674ms total)
T0418 000:842 JLINK_WriteReg(PSP, 0x20000800)  returns 0x00 (0000ms, 0674ms total)
T0418 000:842 JLINK_WriteReg(CFBP, 0x00000000)  returns 0x00 (0000ms, 0674ms total)
T0418 000:842 JLINK_SetBPEx(Addr = 0x20000000, Type = 0xFFFFFFF2)  returns 0x00000002 (0000ms, 0674ms total)
T0418 000:842 JLINK_Go() -- CPU_ReadMem(4 bytes @ 0xE0001000) (0003ms, 0677ms total)
T0418 000:845 JLINK_IsHalted()  returns FALSE (0000ms, 0677ms total)
T0418 000:907 JLINK_IsHalted() -- CPU_ReadMem(2 bytes @ 0x20000000)  returns TRUE (0005ms, 0682ms total)
T0418 000:912 JLINK_ReadReg(R15 (PC))  returns 0x20000000 (0000ms, 0677ms total)
T0418 000:912 JLINK_ClrBPEx(BPHandle = 0x00000002)  returns 0x00 (0000ms, 0677ms total)
T0418 000:912 JLINK_ReadReg(R0)  returns 0x00000000 (0000ms, 0677ms total)
T0418 000:964 JLINK_WriteReg(R0, 0x00000001)  returns 0x00 (0000ms, 0677ms total)
T0418 000:964 JLINK_WriteReg(R1, 0x00B71B00)  returns 0x00 (0000ms, 0677ms total)
T0418 000:964 JLINK_WriteReg(R2, 0x00000001)  returns 0x00 (0000ms, 0677ms total)
T0418 000:964 JLINK_WriteReg(R3, 0x00000000)  returns 0x00 (0000ms, 0677ms total)
T0418 000:964 JLINK_WriteReg(R4, 0x00000000)  returns 0x00 (0001ms, 0678ms total)
T0418 000:965 JLINK_WriteReg(R5, 0x00000000)  returns 0x00 (0000ms, 0678ms total)
T0418 000:965 JLINK_WriteReg(R6, 0x00000000)  returns 0x00 (0000ms, 0678ms total)
T0418 000:965 JLINK_WriteReg(R7, 0x00000000)  returns 0x00 (0000ms, 0678ms total)
T0418 000:965 JLINK_WriteReg(R8, 0x00000000)  returns 0x00 (0000ms, 0678ms total)
T0418 000:965 JLINK_WriteReg(R9, 0x20000160)  returns 0x00 (0000ms, 0678ms total)
T0418 000:965 JLINK_WriteReg(R10, 0x00000000)  returns 0x00 (0000ms, 0678ms total)
T0418 000:965 JLINK_WriteReg(R11, 0x00000000)  returns 0x00 (0000ms, 0678ms total)
T0418 000:965 JLINK_WriteReg(R12, 0x00000000)  returns 0x00 (0000ms, 0678ms total)
T0418 000:965 JLINK_WriteReg(R13 (SP), 0x20000800)  returns 0x00 (0000ms, 0678ms total)
T0418 000:965 JLINK_WriteReg(R14, 0x20000001)  returns 0x00 (0000ms, 0678ms total)
T0418 000:965 JLINK_WriteReg(R15 (PC), 0x2000006A)  returns 0x00 (0000ms, 0678ms total)
T0418 000:965 JLINK_WriteReg(XPSR, 0x01000000)  returns 0x00 (0000ms, 0678ms total)
T0418 000:965 JLINK_WriteReg(MSP, 0x20000800)  returns 0x00 (0000ms, 0678ms total)
T0418 000:965 JLINK_WriteReg(PSP, 0x20000800)  returns 0x00 (0000ms, 0678ms total)
T0418 000:965 JLINK_WriteReg(CFBP, 0x00000000)  returns 0x00 (0000ms, 0678ms total)
T0418 000:965 JLINK_SetBPEx(Addr = 0x20000000, Type = 0xFFFFFFF2)  returns 0x00000003 (0000ms, 0678ms total)
T0418 000:965 JLINK_Go() -- CPU_ReadMem(4 bytes @ 0xE0001000) (0003ms, 0681ms total)
T0418 000:968 JLINK_IsHalted() -- CPU_ReadMem(2 bytes @ 0x20000000)  returns TRUE (0006ms, 0687ms total)
T0418 000:974 JLINK_ReadReg(R15 (PC))  returns 0x20000000 (0000ms, 0681ms total)
T0418 000:974 JLINK_ClrBPEx(BPHandle = 0x00000003)  returns 0x00 (0000ms, 0681ms total)
T0418 000:974 JLINK_ReadReg(R0)  returns 0x00000000 (0000ms, 0681ms total)
T0418 000:985 JLINK_WriteMem(0x20000000, 0x0164 Bytes, ...) - Data: 00 BE 0A E0 0D 78 2D 06 68 40 08 24 40 00 00 D3 ... -- CPU_WriteMem(356 bytes @ 0x20000000)  returns 0x164 (0005ms, 0686ms total)
T0418 000:990 JLINK_WriteReg(R0, 0x08000000)  returns 0x00 (0000ms, 0686ms total)
T0418 000:990 JLINK_WriteReg(R1, 0x00B71B00)  returns 0x00 (0000ms, 0686ms total)
T0418 000:990 JLINK_WriteReg(R2, 0x00000002)  returns 0x00 (0000ms, 0686ms total)
T0418 000:990 JLINK_WriteReg(R3, 0x00000000)  returns 0x00 (0000ms, 0686ms total)
T0418 000:990 JLINK_WriteReg(R4, 0x00000000)  returns 0x00 (0000ms, 0686ms total)
T0418 000:990 JLINK_WriteReg(R5, 0x00000000)  returns 0x00 (0000ms, 0686ms total)
T0418 000:990 JLINK_WriteReg(R6, 0x00000000)  returns 0x00 (0001ms, 0687ms total)
T0418 000:991 JLINK_WriteReg(R7, 0x00000000)  returns 0x00 (0000ms, 0687ms total)
T0418 000:991 JLINK_WriteReg(R8, 0x00000000)  returns 0x00 (0000ms, 0687ms total)
T0418 000:991 JLINK_WriteReg(R9, 0x20000160)  returns 0x00 (0000ms, 0687ms total)
T0418 000:991 JLINK_WriteReg(R10, 0x00000000)  returns 0x00 (0000ms, 0687ms total)
T0418 000:991 JLINK_WriteReg(R11, 0x00000000)  returns 0x00 (0000ms, 0687ms total)
T0418 000:991 JLINK_WriteReg(R12, 0x00000000)  returns 0x00 (0000ms, 0687ms total)
T0418 000:991 JLINK_WriteReg(R13 (SP), 0x20000800)  returns 0x00 (0000ms, 0687ms total)
T0418 000:991 JLINK_WriteReg(R14, 0x20000001)  returns 0x00 (0000ms, 0687ms total)
T0418 000:991 JLINK_WriteReg(R15 (PC), 0x20000038)  returns 0x00 (0000ms, 0687ms total)
T0418 000:991 JLINK_WriteReg(XPSR, 0x01000000)  returns 0x00 (0000ms, 0687ms total)
T0418 000:991 JLINK_WriteReg(MSP, 0x20000800)  returns 0x00 (0000ms, 0687ms total)
T0418 000:991 JLINK_WriteReg(PSP, 0x20000800)  returns 0x00 (0000ms, 0687ms total)
T0418 000:991 JLINK_WriteReg(CFBP, 0x00000000)  returns 0x00 (0000ms, 0687ms total)
T0418 000:991 JLINK_SetBPEx(Addr = 0x20000000, Type = 0xFFFFFFF2) -- CPU_ReadMem(2 bytes @ 0x20000000)  returns 0x00000004 (0001ms, 0688ms total)
T0418 000:992 JLINK_Go() -- CPU_WriteMem(2 bytes @ 0x20000000) -- CPU_ReadMem(4 bytes @ 0xE0001000) (0004ms, 0692ms total)
T0418 000:996 JLINK_IsHalted() -- CPU_ReadMem(2 bytes @ 0x20000000)  returns TRUE (0005ms, 0697ms total)
T0418 001:001 JLINK_ReadReg(R15 (PC))  returns 0x20000000 (0001ms, 0693ms total)
T0418 001:002 JLINK_ClrBPEx(BPHandle = 0x00000004)  returns 0x00 (0000ms, 0693ms total)
T0418 001:002 JLINK_ReadReg(R0)  returns 0x00000000 (0000ms, 0693ms total)
T0418 001:004 JLINK_WriteMem(0x20000164, 0x0400 Bytes, ...) - Data: 80 09 00 20 45 01 00 08 21 20 00 08 39 20 00 08 ... -- CPU_WriteMem(1024 bytes @ 0x20000164)  returns 0x400 (0012ms, 0705ms total)
T0418 001:016 JLINK_WriteReg(R0, 0x08000000)  returns 0x00 (0000ms, 0705ms total)
T0418 001:016 JLINK_WriteReg(R1, 0x00000400)  returns 0x00 (0000ms, 0705ms total)
T0418 001:016 JLINK_WriteReg(R2, 0x20000164)  returns 0x00 (0000ms, 0705ms total)
T0418 001:016 JLINK_WriteReg(R3, 0x00000000)  returns 0x00 (0000ms, 0705ms total)
T0418 001:016 JLINK_WriteReg(R4, 0x00000000)  returns 0x00 (0000ms, 0705ms total)
T0418 001:016 JLINK_WriteReg(R5, 0x00000000)  returns 0x00 (0001ms, 0706ms total)
T0418 001:017 JLINK_WriteReg(R6, 0x00000000)  returns 0x00 (0000ms, 0706ms total)
T0418 001:017 JLINK_WriteReg(R7, 0x00000000)  returns 0x00 (0000ms, 0706ms total)
T0418 001:017 JLINK_WriteReg(R8, 0x00000000)  returns 0x00 (0000ms, 0706ms total)
T0418 001:017 JLINK_WriteReg(R9, 0x20000160)  returns 0x00 (0000ms, 0706ms total)
T0418 001:017 JLINK_WriteReg(R10, 0x00000000)  returns 0x00 (0000ms, 0706ms total)
T0418 001:017 JLINK_WriteReg(R11, 0x00000000)  returns 0x00 (0000ms, 0706ms total)
T0418 001:017 JLINK_WriteReg(R12, 0x00000000)  returns 0x00 (0000ms, 0706ms total)
T0418 001:017 JLINK_WriteReg(R13 (SP), 0x20000800)  returns 0x00 (0000ms, 0706ms total)
T0418 001:017 JLINK_WriteReg(R14, 0x20000001)  returns 0x00 (0000ms, 0706ms total)
T0418 001:017 JLINK_WriteReg(R15 (PC), 0x200000F4)  returns 0x00 (0000ms, 0706ms total)
T0418 001:017 JLINK_WriteReg(XPSR, 0x01000000)  returns 0x00 (0000ms, 0706ms total)
T0418 001:017 JLINK_WriteReg(MSP, 0x20000800)  returns 0x00 (0000ms, 0706ms total)
T0418 001:017 JLINK_WriteReg(PSP, 0x20000800)  returns 0x00 (0000ms, 0706ms total)
T0418 001:017 JLINK_WriteReg(CFBP, 0x00000000)  returns 0x00 (0000ms, 0706ms total)
T0418 001:017 JLINK_SetBPEx(Addr = 0x20000000, Type = 0xFFFFFFF2)  returns 0x00000005 (0000ms, 0706ms total)
T0418 001:017 JLINK_Go() -- CPU_ReadMem(4 bytes @ 0xE0001000) (0004ms, 0710ms total)
T0418 001:021 JLINK_IsHalted()  returns FALSE (0001ms, 0711ms total)
T0418 001:087 JLINK_IsHalted() -- CPU_ReadMem(2 bytes @ 0x20000000)  returns TRUE (0005ms, 0715ms total)
T0418 001:092 JLINK_ReadReg(R15 (PC))  returns 0x20000000 (0000ms, 0710ms total)
T0418 001:092 JLINK_ClrBPEx(BPHandle = 0x00000005)  returns 0x00 (0000ms, 0710ms total)
T0418 001:092 JLINK_ReadReg(R0)  returns 0x00000000 (0000ms, 0710ms total)
T0418 001:092 JLINK_WriteMem(0x20000164, 0x0400 Bytes, ...) - Data: 09 69 21 F0 04 01 4F F0 E0 22 11 61 70 47 00 00 ... -- CPU_WriteMem(1024 bytes @ 0x20000164)  returns 0x400 (0012ms, 0722ms total)
T0418 001:104 JLINK_WriteReg(R0, 0x08000400)  returns 0x00 (0000ms, 0722ms total)
T0418 001:104 JLINK_WriteReg(R1, 0x00000400)  returns 0x00 (0000ms, 0722ms total)
T0418 001:104 JLINK_WriteReg(R2, 0x20000164)  returns 0x00 (0000ms, 0722ms total)
T0418 001:104 JLINK_WriteReg(R3, 0x00000000)  returns 0x00 (0000ms, 0722ms total)
T0418 001:104 JLINK_WriteReg(R4, 0x00000000)  returns 0x00 (0000ms, 0722ms total)
T0418 001:104 JLINK_WriteReg(R5, 0x00000000)  returns 0x00 (0000ms, 0722ms total)
T0418 001:104 JLINK_WriteReg(R6, 0x00000000)  returns 0x00 (0000ms, 0722ms total)
T0418 001:104 JLINK_WriteReg(R7, 0x00000000)  returns 0x00 (0000ms, 0722ms total)
T0418 001:104 JLINK_WriteReg(R8, 0x00000000)  returns 0x00 (0000ms, 0722ms total)
T0418 001:104 JLINK_WriteReg(R9, 0x20000160)  returns 0x00 (0000ms, 0722ms total)
T0418 001:104 JLINK_WriteReg(R10, 0x00000000)  returns 0x00 (0000ms, 0722ms total)
T0418 001:104 JLINK_WriteReg(R11, 0x00000000)  returns 0x00 (0000ms, 0722ms total)
T0418 001:104 JLINK_WriteReg(R12, 0x00000000)  returns 0x00 (0000ms, 0722ms total)
T0418 001:104 JLINK_WriteReg(R13 (SP), 0x20000800)  returns 0x00 (0000ms, 0722ms total)
T0418 001:104 JLINK_WriteReg(R14, 0x20000001)  returns 0x00 (0000ms, 0722ms total)
T0418 001:104 JLINK_WriteReg(R15 (PC), 0x200000F4)  returns 0x00 (0000ms, 0722ms total)
T0418 001:104 JLINK_WriteReg(XPSR, 0x01000000)  returns 0x00 (0000ms, 0722ms total)
T0418 001:104 JLINK_WriteReg(MSP, 0x20000800)  returns 0x00 (0000ms, 0722ms total)
T0418 001:104 JLINK_WriteReg(PSP, 0x20000800)  returns 0x00 (0000ms, 0722ms total)
T0418 001:104 JLINK_WriteReg(CFBP, 0x00000000)  returns 0x00 (0001ms, 0723ms total)
T0418 001:105 JLINK_SetBPEx(Addr = 0x20000000, Type = 0xFFFFFFF2)  returns 0x00000006 (0000ms, 0723ms total)
T0418 001:105 JLINK_Go() -- CPU_ReadMem(4 bytes @ 0xE0001000) (0003ms, 0726ms total)
T0418 001:108 JLINK_IsHalted()  returns FALSE (0001ms, 0727ms total)
T0418 001:130 JLINK_IsHalted()  returns FALSE (0001ms, 0727ms total)
T0418 001:132 JLINK_IsHalted()  returns FALSE (0001ms, 0727ms total)
T0418 001:134 JLINK_IsHalted()  returns FALSE (0001ms, 0727ms total)
T0418 001:136 JLINK_IsHalted()  returns FALSE (0001ms, 0727ms total)
T0418 001:138 JLINK_IsHalted() -- CPU_ReadMem(2 bytes @ 0x20000000)  returns TRUE (0005ms, 0731ms total)
T0418 001:143 JLINK_ReadReg(R15 (PC))  returns 0x20000000 (0000ms, 0726ms total)
T0418 001:143 JLINK_ClrBPEx(BPHandle = 0x00000006)  returns 0x00 (0000ms, 0726ms total)
T0418 001:143 JLINK_ReadReg(R0)  returns 0x00000000 (0000ms, 0726ms total)
T0418 001:143 JLINK_WriteMem(0x20000164, 0x0400 Bytes, ...) - Data: 8C 07 24 0F 00 FA 04 F4 23 43 0C 4C 08 34 8D 10 ... -- CPU_WriteMem(1024 bytes @ 0x20000164)  returns 0x400 (0013ms, 0739ms total)
T0418 001:156 JLINK_WriteReg(R0, 0x08000800)  returns 0x00 (0000ms, 0739ms total)
T0418 001:156 JLINK_WriteReg(R1, 0x00000400)  returns 0x00 (0000ms, 0739ms total)
T0418 001:156 JLINK_WriteReg(R2, 0x20000164)  returns 0x00 (0000ms, 0739ms total)
T0418 001:156 JLINK_WriteReg(R3, 0x00000000)  returns 0x00 (0000ms, 0739ms total)
T0418 001:156 JLINK_WriteReg(R4, 0x00000000)  returns 0x00 (0000ms, 0739ms total)
T0418 001:156 JLINK_WriteReg(R5, 0x00000000)  returns 0x00 (0000ms, 0739ms total)
T0418 001:156 JLINK_WriteReg(R6, 0x00000000)  returns 0x00 (0000ms, 0739ms total)
T0418 001:156 JLINK_WriteReg(R7, 0x00000000)  returns 0x00 (0000ms, 0739ms total)
T0418 001:156 JLINK_WriteReg(R8, 0x00000000)  returns 0x00 (0000ms, 0739ms total)
T0418 001:156 JLINK_WriteReg(R9, 0x20000160)  returns 0x00 (0000ms, 0739ms total)
T0418 001:156 JLINK_WriteReg(R10, 0x00000000)  returns 0x00 (0000ms, 0739ms total)
T0418 001:156 JLINK_WriteReg(R11, 0x00000000)  returns 0x00 (0000ms, 0739ms total)
T0418 001:156 JLINK_WriteReg(R12, 0x00000000)  returns 0x00 (0000ms, 0739ms total)
T0418 001:156 JLINK_WriteReg(R13 (SP), 0x20000800)  returns 0x00 (0000ms, 0739ms total)
T0418 001:156 JLINK_WriteReg(R14, 0x20000001)  returns 0x00 (0000ms, 0739ms total)
T0418 001:156 JLINK_WriteReg(R15 (PC), 0x200000F4)  returns 0x00 (0000ms, 0739ms total)
T0418 001:156 JLINK_WriteReg(XPSR, 0x01000000)  returns 0x00 (0000ms, 0739ms total)
T0418 001:156 JLINK_WriteReg(MSP, 0x20000800)  returns 0x00 (0000ms, 0739ms total)
T0418 001:156 JLINK_WriteReg(PSP, 0x20000800)  returns 0x00 (0000ms, 0739ms total)
T0418 001:156 JLINK_WriteReg(CFBP, 0x00000000)  returns 0x00 (0000ms, 0739ms total)
T0418 001:156 JLINK_SetBPEx(Addr = 0x20000000, Type = 0xFFFFFFF2)  returns 0x00000007 (0000ms, 0739ms total)
T0418 001:156 JLINK_Go() -- CPU_ReadMem(4 bytes @ 0xE0001000) (0004ms, 0743ms total)
T0418 001:160 JLINK_IsHalted()  returns FALSE (0001ms, 0744ms total)
T0418 001:164 JLINK_IsHalted()  returns FALSE (0000ms, 0743ms total)
T0418 001:166 JLINK_IsHalted()  returns FALSE (0000ms, 0743ms total)
T0418 001:168 JLINK_IsHalted()  returns FALSE (0000ms, 0743ms total)
T0418 001:170 JLINK_IsHalted()  returns FALSE (0000ms, 0743ms total)
T0418 001:172 JLINK_IsHalted()  returns FALSE (0000ms, 0743ms total)
T0418 001:174 JLINK_IsHalted()  returns FALSE (0000ms, 0743ms total)
T0418 001:175 JLINK_IsHalted()  returns FALSE (0001ms, 0744ms total)
T0418 001:179 JLINK_IsHalted()  returns FALSE (0000ms, 0743ms total)
T0418 001:181 JLINK_IsHalted()  returns FALSE (0000ms, 0743ms total)
T0418 001:183 JLINK_IsHalted()  returns FALSE (0000ms, 0743ms total)
T0418 001:185 JLINK_IsHalted()  returns FALSE (0000ms, 0743ms total)
T0418 001:187 JLINK_IsHalted()  returns FALSE (0001ms, 0744ms total)
T0418 001:189 JLINK_IsHalted()  returns FALSE (0001ms, 0744ms total)
T0418 001:191 JLINK_IsHalted() -- CPU_ReadMem(2 bytes @ 0x20000000)  returns TRUE (0005ms, 0748ms total)
T0418 001:196 JLINK_ReadReg(R15 (PC))  returns 0x20000000 (0000ms, 0743ms total)
T0418 001:196 JLINK_ClrBPEx(BPHandle = 0x00000007)  returns 0x00 (0000ms, 0743ms total)
T0418 001:196 JLINK_ReadReg(R0)  returns 0x00000000 (0000ms, 0743ms total)
T0418 001:196 JLINK_WriteMem(0x20000164, 0x0400 Bytes, ...) - Data: 23 4B 9A 61 70 47 29 B1 21 4A D2 69 02 43 20 4B ... -- CPU_WriteMem(1024 bytes @ 0x20000164)  returns 0x400 (0014ms, 0757ms total)
T0418 001:210 JLINK_WriteReg(R0, 0x08000C00)  returns 0x00 (0000ms, 0757ms total)
T0418 001:210 JLINK_WriteReg(R1, 0x00000400)  returns 0x00 (0000ms, 0757ms total)
T0418 001:210 JLINK_WriteReg(R2, 0x20000164)  returns 0x00 (0000ms, 0757ms total)
T0418 001:210 JLINK_WriteReg(R3, 0x00000000)  returns 0x00 (0000ms, 0757ms total)
T0418 001:210 JLINK_WriteReg(R4, 0x00000000)  returns 0x00 (0001ms, 0758ms total)
T0418 001:211 JLINK_WriteReg(R5, 0x00000000)  returns 0x00 (0000ms, 0758ms total)
T0418 001:211 JLINK_WriteReg(R6, 0x00000000)  returns 0x00 (0000ms, 0758ms total)
T0418 001:211 JLINK_WriteReg(R7, 0x00000000)  returns 0x00 (0000ms, 0758ms total)
T0418 001:211 JLINK_WriteReg(R8, 0x00000000)  returns 0x00 (0000ms, 0758ms total)
T0418 001:211 JLINK_WriteReg(R9, 0x20000160)  returns 0x00 (0000ms, 0758ms total)
T0418 001:211 JLINK_WriteReg(R10, 0x00000000)  returns 0x00 (0000ms, 0758ms total)
T0418 001:211 JLINK_WriteReg(R11, 0x00000000)  returns 0x00 (0000ms, 0758ms total)
T0418 001:211 JLINK_WriteReg(R12, 0x00000000)  returns 0x00 (0000ms, 0758ms total)
T0418 001:211 JLINK_WriteReg(R13 (SP), 0x20000800)  returns 0x00 (0000ms, 0758ms total)
T0418 001:211 JLINK_WriteReg(R14, 0x20000001)  returns 0x00 (0000ms, 0758ms total)
T0418 001:211 JLINK_WriteReg(R15 (PC), 0x200000F4)  returns 0x00 (0000ms, 0758ms total)
T0418 001:211 JLINK_WriteReg(XPSR, 0x01000000)  returns 0x00 (0000ms, 0758ms total)
T0418 001:211 JLINK_WriteReg(MSP, 0x20000800)  returns 0x00 (0000ms, 0758ms total)
T0418 001:211 JLINK_WriteReg(PSP, 0x20000800)  returns 0x00 (0000ms, 0758ms total)
T0418 001:211 JLINK_WriteReg(CFBP, 0x00000000)  returns 0x00 (0000ms, 0758ms total)
T0418 001:211 JLINK_SetBPEx(Addr = 0x20000000, Type = 0xFFFFFFF2)  returns 0x00000008 (0000ms, 0758ms total)
T0418 001:211 JLINK_Go() -- CPU_ReadMem(4 bytes @ 0xE0001000) (0004ms, 0762ms total)
T0418 001:215 JLINK_IsHalted()  returns FALSE (0001ms, 0763ms total)
T0418 001:282 JLINK_IsHalted() -- CPU_ReadMem(2 bytes @ 0x20000000)  returns TRUE (0005ms, 0767ms total)
T0418 001:287 JLINK_ReadReg(R15 (PC))  returns 0x20000000 (0000ms, 0762ms total)
T0418 001:287 JLINK_ClrBPEx(BPHandle = 0x00000008)  returns 0x00 (0000ms, 0762ms total)
T0418 001:287 JLINK_ReadReg(R0)  returns 0x00000000 (0000ms, 0762ms total)
T0418 001:287 JLINK_WriteMem(0x20000164, 0x0400 Bytes, ...) - Data: 08 D0 8B 4B 98 42 05 D0 8A 4B 98 42 02 D0 8A 4B ... -- CPU_WriteMem(1024 bytes @ 0x20000164)  returns 0x400 (0013ms, 0775ms total)
T0418 001:300 JLINK_WriteReg(R0, 0x08001000)  returns 0x00 (0000ms, 0775ms total)
T0418 001:300 JLINK_WriteReg(R1, 0x00000400)  returns 0x00 (0000ms, 0775ms total)
T0418 001:300 JLINK_WriteReg(R2, 0x20000164)  returns 0x00 (0000ms, 0775ms total)
T0418 001:300 JLINK_WriteReg(R3, 0x00000000)  returns 0x00 (0000ms, 0775ms total)
T0418 001:300 JLINK_WriteReg(R4, 0x00000000)  returns 0x00 (0000ms, 0775ms total)
T0418 001:300 JLINK_WriteReg(R5, 0x00000000)  returns 0x00 (0000ms, 0775ms total)
T0418 001:300 JLINK_WriteReg(R6, 0x00000000)  returns 0x00 (0000ms, 0775ms total)
T0418 001:300 JLINK_WriteReg(R7, 0x00000000)  returns 0x00 (0000ms, 0775ms total)
T0418 001:300 JLINK_WriteReg(R8, 0x00000000)  returns 0x00 (0000ms, 0775ms total)
T0418 001:300 JLINK_WriteReg(R9, 0x20000160)  returns 0x00 (0000ms, 0775ms total)
T0418 001:300 JLINK_WriteReg(R10, 0x00000000)  returns 0x00 (0000ms, 0775ms total)
T0418 001:300 JLINK_WriteReg(R11, 0x00000000)  returns 0x00 (0000ms, 0775ms total)
T0418 001:300 JLINK_WriteReg(R12, 0x00000000)  returns 0x00 (0000ms, 0775ms total)
T0418 001:300 JLINK_WriteReg(R13 (SP), 0x20000800)  returns 0x00 (0000ms, 0775ms total)
T0418 001:300 JLINK_WriteReg(R14, 0x20000001)  returns 0x00 (0000ms, 0775ms total)
T0418 001:300 JLINK_WriteReg(R15 (PC), 0x200000F4)  returns 0x00 (0000ms, 0775ms total)
T0418 001:300 JLINK_WriteReg(XPSR, 0x01000000)  returns 0x00 (0000ms, 0775ms total)
T0418 001:300 JLINK_WriteReg(MSP, 0x20000800)  returns 0x00 (0000ms, 0775ms total)
T0418 001:300 JLINK_WriteReg(PSP, 0x20000800)  returns 0x00 (0000ms, 0775ms total)
T0418 001:300 JLINK_WriteReg(CFBP, 0x00000000)  returns 0x00 (0000ms, 0775ms total)
T0418 001:300 JLINK_SetBPEx(Addr = 0x20000000, Type = 0xFFFFFFF2)  returns 0x00000009 (0000ms, 0775ms total)
T0418 001:300 JLINK_Go() -- CPU_ReadMem(4 bytes @ 0xE0001000) (0003ms, 0778ms total)
T0418 001:303 JLINK_IsHalted()  returns FALSE (0001ms, 0779ms total)
T0418 001:308 JLINK_IsHalted()  returns FALSE (0000ms, 0778ms total)
T0418 001:310 JLINK_IsHalted()  returns FALSE (0000ms, 0778ms total)
T0418 001:312 JLINK_IsHalted()  returns FALSE (0000ms, 0778ms total)
T0418 001:314 JLINK_IsHalted()  returns FALSE (0000ms, 0778ms total)
T0418 001:316 JLINK_IsHalted()  returns FALSE (0000ms, 0778ms total)
T0418 001:340 JLINK_IsHalted() -- CPU_ReadMem(2 bytes @ 0x20000000)  returns TRUE (0004ms, 0782ms total)
T0418 001:344 JLINK_ReadReg(R15 (PC))  returns 0x20000000 (0000ms, 0778ms total)
T0418 001:344 JLINK_ClrBPEx(BPHandle = 0x00000009)  returns 0x00 (0000ms, 0778ms total)
T0418 001:344 JLINK_ReadReg(R0)  returns 0x00000000 (0000ms, 0778ms total)
T0418 001:345 JLINK_WriteMem(0x20000164, 0x0400 Bytes, ...) - Data: FF 77 07 EA 05 27 3A 43 8F 4F B8 42 0E D0 8F 4F ... -- CPU_WriteMem(1024 bytes @ 0x20000164)  returns 0x400 (0013ms, 0791ms total)
T0418 001:358 JLINK_WriteReg(R0, 0x08001400)  returns 0x00 (0000ms, 0791ms total)
T0418 001:358 JLINK_WriteReg(R1, 0x00000400)  returns 0x00 (0000ms, 0791ms total)
T0418 001:358 JLINK_WriteReg(R2, 0x20000164)  returns 0x00 (0000ms, 0791ms total)
T0418 001:358 JLINK_WriteReg(R3, 0x00000000)  returns 0x00 (0000ms, 0791ms total)
T0418 001:358 JLINK_WriteReg(R4, 0x00000000)  returns 0x00 (0000ms, 0791ms total)
T0418 001:358 JLINK_WriteReg(R5, 0x00000000)  returns 0x00 (0000ms, 0791ms total)
T0418 001:358 JLINK_WriteReg(R6, 0x00000000)  returns 0x00 (0000ms, 0791ms total)
T0418 001:358 JLINK_WriteReg(R7, 0x00000000)  returns 0x00 (0000ms, 0791ms total)
T0418 001:358 JLINK_WriteReg(R8, 0x00000000)  returns 0x00 (0000ms, 0791ms total)
T0418 001:358 JLINK_WriteReg(R9, 0x20000160)  returns 0x00 (0000ms, 0791ms total)
T0418 001:358 JLINK_WriteReg(R10, 0x00000000)  returns 0x00 (0000ms, 0791ms total)
T0418 001:358 JLINK_WriteReg(R11, 0x00000000)  returns 0x00 (0000ms, 0791ms total)
T0418 001:358 JLINK_WriteReg(R12, 0x00000000)  returns 0x00 (0000ms, 0791ms total)
T0418 001:358 JLINK_WriteReg(R13 (SP), 0x20000800)  returns 0x00 (0000ms, 0791ms total)
T0418 001:358 JLINK_WriteReg(R14, 0x20000001)  returns 0x00 (0000ms, 0791ms total)
T0418 001:358 JLINK_WriteReg(R15 (PC), 0x200000F4)  returns 0x00 (0000ms, 0791ms total)
T0418 001:358 JLINK_WriteReg(XPSR, 0x01000000)  returns 0x00 (0000ms, 0791ms total)
T0418 001:358 JLINK_WriteReg(MSP, 0x20000800)  returns 0x00 (0000ms, 0791ms total)
T0418 001:358 JLINK_WriteReg(PSP, 0x20000800)  returns 0x00 (0000ms, 0791ms total)
T0418 001:358 JLINK_WriteReg(CFBP, 0x00000000)  returns 0x00 (0000ms, 0791ms total)
T0418 001:358 JLINK_SetBPEx(Addr = 0x20000000, Type = 0xFFFFFFF2)  returns 0x0000000A (0000ms, 0791ms total)
T0418 001:358 JLINK_Go() -- CPU_ReadMem(4 bytes @ 0xE0001000) (0003ms, 0794ms total)
T0418 001:361 JLINK_IsHalted()  returns FALSE (0000ms, 0794ms total)
T0418 001:364 JLINK_IsHalted()  returns FALSE (0000ms, 0794ms total)
T0418 001:365 JLINK_IsHalted()  returns FALSE (0001ms, 0795ms total)
T0418 001:367 JLINK_IsHalted()  returns FALSE (0001ms, 0795ms total)
T0418 001:369 JLINK_IsHalted()  returns FALSE (0001ms, 0795ms total)
T0418 001:371 JLINK_IsHalted()  returns FALSE (0001ms, 0795ms total)
T0418 001:373 JLINK_IsHalted()  returns FALSE (0001ms, 0795ms total)
T0418 001:375 JLINK_IsHalted()  returns FALSE (0001ms, 0795ms total)
T0418 001:377 JLINK_IsHalted()  returns FALSE (0001ms, 0795ms total)
T0418 001:379 JLINK_IsHalted()  returns FALSE (0001ms, 0795ms total)
T0418 001:381 JLINK_IsHalted()  returns FALSE (0001ms, 0795ms total)
T0418 001:383 JLINK_IsHalted()  returns FALSE (0001ms, 0795ms total)
T0418 001:385 JLINK_IsHalted()  returns FALSE (0001ms, 0795ms total)
T0418 001:387 JLINK_IsHalted()  returns FALSE (0001ms, 0795ms total)
T0418 001:389 JLINK_IsHalted()  returns FALSE (0001ms, 0795ms total)
T0418 001:391 JLINK_IsHalted()  returns FALSE (0000ms, 0794ms total)
T0418 001:393 JLINK_IsHalted() -- CPU_ReadMem(2 bytes @ 0x20000000)  returns TRUE (0003ms, 0797ms total)
T0418 001:396 JLINK_ReadReg(R15 (PC))  returns 0x20000000 (0000ms, 0794ms total)
T0418 001:396 JLINK_ClrBPEx(BPHandle = 0x0000000A)  returns 0x00 (0000ms, 0794ms total)
T0418 001:396 JLINK_ReadReg(R0)  returns 0x00000000 (0000ms, 0794ms total)
T0418 001:397 JLINK_WriteMem(0x20000164, 0x0400 Bytes, ...) - Data: 03 84 F0 BD 0A 46 00 21 01 8B 4F F6 8F 73 19 40 ... -- CPU_WriteMem(1024 bytes @ 0x20000164)  returns 0x400 (0013ms, 0807ms total)
T0418 001:410 JLINK_WriteReg(R0, 0x08001800)  returns 0x00 (0000ms, 0807ms total)
T0418 001:410 JLINK_WriteReg(R1, 0x00000400)  returns 0x00 (0000ms, 0807ms total)
T0418 001:410 JLINK_WriteReg(R2, 0x20000164)  returns 0x00 (0000ms, 0807ms total)
T0418 001:410 JLINK_WriteReg(R3, 0x00000000)  returns 0x00 (0000ms, 0807ms total)
T0418 001:410 JLINK_WriteReg(R4, 0x00000000)  returns 0x00 (0000ms, 0807ms total)
T0418 001:410 JLINK_WriteReg(R5, 0x00000000)  returns 0x00 (0000ms, 0807ms total)
T0418 001:410 JLINK_WriteReg(R6, 0x00000000)  returns 0x00 (0000ms, 0807ms total)
T0418 001:410 JLINK_WriteReg(R7, 0x00000000)  returns 0x00 (0000ms, 0807ms total)
T0418 001:410 JLINK_WriteReg(R8, 0x00000000)  returns 0x00 (0000ms, 0807ms total)
T0418 001:410 JLINK_WriteReg(R9, 0x20000160)  returns 0x00 (0000ms, 0807ms total)
T0418 001:410 JLINK_WriteReg(R10, 0x00000000)  returns 0x00 (0000ms, 0807ms total)
T0418 001:410 JLINK_WriteReg(R11, 0x00000000)  returns 0x00 (0000ms, 0807ms total)
T0418 001:410 JLINK_WriteReg(R12, 0x00000000)  returns 0x00 (0000ms, 0807ms total)
T0418 001:410 JLINK_WriteReg(R13 (SP), 0x20000800)  returns 0x00 (0000ms, 0807ms total)
T0418 001:410 JLINK_WriteReg(R14, 0x20000001)  returns 0x00 (0000ms, 0807ms total)
T0418 001:410 JLINK_WriteReg(R15 (PC), 0x200000F4)  returns 0x00 (0000ms, 0807ms total)
T0418 001:410 JLINK_WriteReg(XPSR, 0x01000000)  returns 0x00 (0000ms, 0807ms total)
T0418 001:410 JLINK_WriteReg(MSP, 0x20000800)  returns 0x00 (0000ms, 0807ms total)
T0418 001:410 JLINK_WriteReg(PSP, 0x20000800)  returns 0x00 (0000ms, 0807ms total)
T0418 001:411 JLINK_WriteReg(CFBP, 0x00000000)  returns 0x00 (0000ms, 0808ms total)
T0418 001:411 JLINK_SetBPEx(Addr = 0x20000000, Type = 0xFFFFFFF2)  returns 0x0000000B (0000ms, 0808ms total)
T0418 001:411 JLINK_Go() -- CPU_ReadMem(4 bytes @ 0xE0001000) (0002ms, 0810ms total)
T0418 001:414 JLINK_IsHalted()  returns FALSE (0000ms, 0811ms total)
T0418 001:420 JLINK_IsHalted()  returns FALSE (0001ms, 0812ms total)
T0418 001:422 JLINK_IsHalted()  returns FALSE (0001ms, 0812ms total)
T0418 001:424 JLINK_IsHalted()  returns FALSE (0001ms, 0812ms total)
T0418 001:426 JLINK_IsHalted()  returns FALSE (0001ms, 0812ms total)
T0418 001:450 JLINK_IsHalted() -- CPU_ReadMem(2 bytes @ 0x20000000)  returns TRUE (0004ms, 0815ms total)
T0418 001:454 JLINK_ReadReg(R15 (PC))  returns 0x20000000 (0000ms, 0811ms total)
T0418 001:454 JLINK_ClrBPEx(BPHandle = 0x0000000B)  returns 0x00 (0000ms, 0811ms total)
T0418 001:454 JLINK_ReadReg(R0)  returns 0x00000000 (0000ms, 0811ms total)
T0418 001:455 JLINK_WriteMem(0x20000164, 0x0400 Bytes, ...) - Data: 05 EA 01 04 13 B1 0C B1 01 20 00 E0 00 20 30 BD ... -- CPU_WriteMem(1024 bytes @ 0x20000164)  returns 0x400 (0012ms, 0823ms total)
T0418 001:467 JLINK_WriteReg(R0, 0x08001C00)  returns 0x00 (0000ms, 0823ms total)
T0418 001:467 JLINK_WriteReg(R1, 0x00000400)  returns 0x00 (0000ms, 0823ms total)
T0418 001:467 JLINK_WriteReg(R2, 0x20000164)  returns 0x00 (0000ms, 0823ms total)
T0418 001:467 JLINK_WriteReg(R3, 0x00000000)  returns 0x00 (0000ms, 0823ms total)
T0418 001:467 JLINK_WriteReg(R4, 0x00000000)  returns 0x00 (0000ms, 0823ms total)
T0418 001:467 JLINK_WriteReg(R5, 0x00000000)  returns 0x00 (0000ms, 0823ms total)
T0418 001:467 JLINK_WriteReg(R6, 0x00000000)  returns 0x00 (0000ms, 0823ms total)
T0418 001:467 JLINK_WriteReg(R7, 0x00000000)  returns 0x00 (0000ms, 0823ms total)
T0418 001:467 JLINK_WriteReg(R8, 0x00000000)  returns 0x00 (0000ms, 0823ms total)
T0418 001:467 JLINK_WriteReg(R9, 0x20000160)  returns 0x00 (0000ms, 0823ms total)
T0418 001:467 JLINK_WriteReg(R10, 0x00000000)  returns 0x00 (0000ms, 0823ms total)
T0418 001:467 JLINK_WriteReg(R11, 0x00000000)  returns 0x00 (0000ms, 0823ms total)
T0418 001:467 JLINK_WriteReg(R12, 0x00000000)  returns 0x00 (0000ms, 0823ms total)
T0418 001:467 JLINK_WriteReg(R13 (SP), 0x20000800)  returns 0x00 (0000ms, 0823ms total)
T0418 001:467 JLINK_WriteReg(R14, 0x20000001)  returns 0x00 (0000ms, 0823ms total)
T0418 001:467 JLINK_WriteReg(R15 (PC), 0x200000F4)  returns 0x00 (0000ms, 0823ms total)
T0418 001:467 JLINK_WriteReg(XPSR, 0x01000000)  returns 0x00 (0000ms, 0823ms total)
T0418 001:467 JLINK_WriteReg(MSP, 0x20000800)  returns 0x00 (0000ms, 0823ms total)
T0418 001:467 JLINK_WriteReg(PSP, 0x20000800)  returns 0x00 (0000ms, 0823ms total)
T0418 001:467 JLINK_WriteReg(CFBP, 0x00000000)  returns 0x00 (0000ms, 0823ms total)
T0418 001:467 JLINK_SetBPEx(Addr = 0x20000000, Type = 0xFFFFFFF2)  returns 0x0000000C (0000ms, 0823ms total)
T0418 001:467 JLINK_Go() -- CPU_ReadMem(4 bytes @ 0xE0001000) (0003ms, 0826ms total)
T0418 001:471 JLINK_IsHalted()  returns FALSE (0000ms, 0826ms total)
T0418 001:473 JLINK_IsHalted()  returns FALSE (0000ms, 0826ms total)
T0418 001:475 JLINK_IsHalted()  returns FALSE (0000ms, 0826ms total)
T0418 001:477 JLINK_IsHalted()  returns FALSE (0001ms, 0827ms total)
T0418 001:479 JLINK_IsHalted()  returns FALSE (0001ms, 0827ms total)
T0418 001:481 JLINK_IsHalted()  returns FALSE (0001ms, 0827ms total)
T0418 001:483 JLINK_IsHalted()  returns FALSE (0001ms, 0827ms total)
T0418 001:485 JLINK_IsHalted()  returns FALSE (0001ms, 0827ms total)
T0418 001:487 JLINK_IsHalted()  returns FALSE (0001ms, 0827ms total)
T0418 001:489 JLINK_IsHalted()  returns FALSE (0001ms, 0827ms total)
T0418 001:491 JLINK_IsHalted()  returns FALSE (0001ms, 0827ms total)
T0418 001:493 JLINK_IsHalted()  returns FALSE (0000ms, 0826ms total)
T0418 001:495 JLINK_IsHalted()  returns FALSE (0000ms, 0826ms total)
T0418 001:497 JLINK_IsHalted()  returns FALSE (0001ms, 0827ms total)
T0418 001:499 JLINK_IsHalted()  returns FALSE (0000ms, 0826ms total)
T0418 001:501 JLINK_IsHalted() -- CPU_ReadMem(2 bytes @ 0x20000000)  returns TRUE (0004ms, 0830ms total)
T0418 001:505 JLINK_ReadReg(R15 (PC))  returns 0x20000000 (0000ms, 0826ms total)
T0418 001:505 JLINK_ClrBPEx(BPHandle = 0x0000000C)  returns 0x00 (0000ms, 0826ms total)
T0418 001:505 JLINK_ReadReg(R0)  returns 0x00000000 (0000ms, 0826ms total)
T0418 001:505 JLINK_WriteMem(0x20000164, 0x0400 Bytes, ...) - Data: 94 40 A3 B2 DC 43 04 80 10 BD 00 00 00 38 01 40 ... -- CPU_WriteMem(1024 bytes @ 0x20000164)  returns 0x400 (0013ms, 0839ms total)
T0418 001:518 JLINK_WriteReg(R0, 0x08002000)  returns 0x00 (0000ms, 0839ms total)
T0418 001:518 JLINK_WriteReg(R1, 0x00000400)  returns 0x00 (0000ms, 0839ms total)
T0418 001:518 JLINK_WriteReg(R2, 0x20000164)  returns 0x00 (0000ms, 0839ms total)
T0418 001:518 JLINK_WriteReg(R3, 0x00000000)  returns 0x00 (0000ms, 0839ms total)
T0418 001:518 JLINK_WriteReg(R4, 0x00000000)  returns 0x00 (0000ms, 0839ms total)
T0418 001:518 JLINK_WriteReg(R5, 0x00000000)  returns 0x00 (0000ms, 0839ms total)
T0418 001:518 JLINK_WriteReg(R6, 0x00000000)  returns 0x00 (0000ms, 0839ms total)
T0418 001:518 JLINK_WriteReg(R7, 0x00000000)  returns 0x00 (0000ms, 0839ms total)
T0418 001:518 JLINK_WriteReg(R8, 0x00000000)  returns 0x00 (0000ms, 0839ms total)
T0418 001:518 JLINK_WriteReg(R9, 0x20000160)  returns 0x00 (0000ms, 0839ms total)
T0418 001:518 JLINK_WriteReg(R10, 0x00000000)  returns 0x00 (0000ms, 0839ms total)
T0418 001:518 JLINK_WriteReg(R11, 0x00000000)  returns 0x00 (0000ms, 0839ms total)
T0418 001:518 JLINK_WriteReg(R12, 0x00000000)  returns 0x00 (0000ms, 0839ms total)
T0418 001:518 JLINK_WriteReg(R13 (SP), 0x20000800)  returns 0x00 (0000ms, 0839ms total)
T0418 001:518 JLINK_WriteReg(R14, 0x20000001)  returns 0x00 (0000ms, 0839ms total)
T0418 001:518 JLINK_WriteReg(R15 (PC), 0x200000F4)  returns 0x00 (0000ms, 0839ms total)
T0418 001:518 JLINK_WriteReg(XPSR, 0x01000000)  returns 0x00 (0000ms, 0839ms total)
T0418 001:518 JLINK_WriteReg(MSP, 0x20000800)  returns 0x00 (0000ms, 0839ms total)
T0418 001:518 JLINK_WriteReg(PSP, 0x20000800)  returns 0x00 (0000ms, 0839ms total)
T0418 001:518 JLINK_WriteReg(CFBP, 0x00000000)  returns 0x00 (0000ms, 0839ms total)
T0418 001:518 JLINK_SetBPEx(Addr = 0x20000000, Type = 0xFFFFFFF2)  returns 0x0000000D (0000ms, 0839ms total)
T0418 001:518 JLINK_Go() -- CPU_ReadMem(4 bytes @ 0xE0001000) (0003ms, 0842ms total)
T0418 001:521 JLINK_IsHalted()  returns FALSE (0000ms, 0842ms total)
T0418 001:525 JLINK_IsHalted()  returns FALSE (0001ms, 0843ms total)
T0418 001:527 JLINK_IsHalted()  returns FALSE (0001ms, 0843ms total)
T0418 001:529 JLINK_IsHalted()  returns FALSE (0001ms, 0843ms total)
T0418 001:531 JLINK_IsHalted()  returns FALSE (0001ms, 0843ms total)
T0418 001:533 JLINK_IsHalted()  returns FALSE (0001ms, 0843ms total)
T0418 001:556 JLINK_IsHalted() -- CPU_ReadMem(2 bytes @ 0x20000000)  returns TRUE (0004ms, 0846ms total)
T0418 001:560 JLINK_ReadReg(R15 (PC))  returns 0x20000000 (0000ms, 0842ms total)
T0418 001:560 JLINK_ClrBPEx(BPHandle = 0x0000000D)  returns 0x00 (0000ms, 0842ms total)
T0418 001:560 JLINK_ReadReg(R0)  returns 0x00000000 (0000ms, 0842ms total)
T0418 001:561 JLINK_WriteMem(0x20000164, 0x0400 Bytes, ...) - Data: 00 20 70 BD 01 20 FC E7 10 B5 C9 4B 98 42 41 DA ... -- CPU_WriteMem(1024 bytes @ 0x20000164)  returns 0x400 (0013ms, 0855ms total)
T0418 001:574 JLINK_WriteReg(R0, 0x08002400)  returns 0x00 (0000ms, 0855ms total)
T0418 001:574 JLINK_WriteReg(R1, 0x00000400)  returns 0x00 (0000ms, 0855ms total)
T0418 001:574 JLINK_WriteReg(R2, 0x20000164)  returns 0x00 (0000ms, 0855ms total)
T0418 001:574 JLINK_WriteReg(R3, 0x00000000)  returns 0x00 (0000ms, 0855ms total)
T0418 001:574 JLINK_WriteReg(R4, 0x00000000)  returns 0x00 (0000ms, 0855ms total)
T0418 001:574 JLINK_WriteReg(R5, 0x00000000)  returns 0x00 (0000ms, 0855ms total)
T0418 001:574 JLINK_WriteReg(R6, 0x00000000)  returns 0x00 (0000ms, 0855ms total)
T0418 001:574 JLINK_WriteReg(R7, 0x00000000)  returns 0x00 (0000ms, 0855ms total)
T0418 001:574 JLINK_WriteReg(R8, 0x00000000)  returns 0x00 (0000ms, 0855ms total)
T0418 001:574 JLINK_WriteReg(R9, 0x20000160)  returns 0x00 (0000ms, 0855ms total)
T0418 001:574 JLINK_WriteReg(R10, 0x00000000)  returns 0x00 (0000ms, 0855ms total)
T0418 001:574 JLINK_WriteReg(R11, 0x00000000)  returns 0x00 (0000ms, 0855ms total)
T0418 001:574 JLINK_WriteReg(R12, 0x00000000)  returns 0x00 (0000ms, 0855ms total)
T0418 001:574 JLINK_WriteReg(R13 (SP), 0x20000800)  returns 0x00 (0000ms, 0855ms total)
T0418 001:574 JLINK_WriteReg(R14, 0x20000001)  returns 0x00 (0000ms, 0855ms total)
T0418 001:574 JLINK_WriteReg(R15 (PC), 0x200000F4)  returns 0x00 (0000ms, 0855ms total)
T0418 001:574 JLINK_WriteReg(XPSR, 0x01000000)  returns 0x00 (0000ms, 0855ms total)
T0418 001:574 JLINK_WriteReg(MSP, 0x20000800)  returns 0x00 (0000ms, 0855ms total)
T0418 001:574 JLINK_WriteReg(PSP, 0x20000800)  returns 0x00 (0000ms, 0855ms total)
T0418 001:574 JLINK_WriteReg(CFBP, 0x00000000)  returns 0x00 (0000ms, 0855ms total)
T0418 001:574 JLINK_SetBPEx(Addr = 0x20000000, Type = 0xFFFFFFF2)  returns 0x0000000E (0000ms, 0855ms total)
T0418 001:574 JLINK_Go() -- CPU_ReadMem(4 bytes @ 0xE0001000) (0002ms, 0857ms total)
T0418 001:576 JLINK_IsHalted()  returns FALSE (0001ms, 0858ms total)
T0418 001:579 JLINK_IsHalted()  returns FALSE (0000ms, 0857ms total)
T0418 001:581 JLINK_IsHalted()  returns FALSE (0000ms, 0857ms total)
T0418 001:583 JLINK_IsHalted()  returns FALSE (0000ms, 0857ms total)
T0418 001:585 JLINK_IsHalted()  returns FALSE (0000ms, 0857ms total)
T0418 001:587 JLINK_IsHalted()  returns FALSE (0001ms, 0858ms total)
T0418 001:589 JLINK_IsHalted()  returns FALSE (0000ms, 0857ms total)
T0418 001:591 JLINK_IsHalted()  returns FALSE (0000ms, 0857ms total)
T0418 001:593 JLINK_IsHalted()  returns FALSE (0000ms, 0857ms total)
T0418 001:595 JLINK_IsHalted()  returns FALSE (0000ms, 0857ms total)
T0418 001:597 JLINK_IsHalted()  returns FALSE (0001ms, 0858ms total)
T0418 001:599 JLINK_IsHalted()  returns FALSE (0001ms, 0858ms total)
T0418 001:601 JLINK_IsHalted()  returns FALSE (0001ms, 0858ms total)
T0418 001:603 JLINK_IsHalted()  returns FALSE (0001ms, 0858ms total)
T0418 001:605 JLINK_IsHalted()  returns FALSE (0001ms, 0858ms total)
T0418 001:607 JLINK_IsHalted() -- CPU_ReadMem(2 bytes @ 0x20000000)  returns TRUE (0004ms, 0861ms total)
T0418 001:611 JLINK_ReadReg(R15 (PC))  returns 0x20000000 (0000ms, 0857ms total)
T0418 001:611 JLINK_ClrBPEx(BPHandle = 0x0000000E)  returns 0x00 (0000ms, 0857ms total)
T0418 001:611 JLINK_ReadReg(R0)  returns 0x00000000 (0000ms, 0857ms total)
T0418 001:612 JLINK_WriteMem(0x20000164, 0x0400 Bytes, ...) - Data: 21 DB 73 48 00 7B 39 28 1D DC 71 48 40 7B 30 28 ... -- CPU_WriteMem(1024 bytes @ 0x20000164)  returns 0x400 (0013ms, 0870ms total)
T0418 001:625 JLINK_WriteReg(R0, 0x08002800)  returns 0x00 (0000ms, 0870ms total)
T0418 001:625 JLINK_WriteReg(R1, 0x00000400)  returns 0x00 (0000ms, 0870ms total)
T0418 001:625 JLINK_WriteReg(R2, 0x20000164)  returns 0x00 (0000ms, 0870ms total)
T0418 001:625 JLINK_WriteReg(R3, 0x00000000)  returns 0x00 (0000ms, 0870ms total)
T0418 001:625 JLINK_WriteReg(R4, 0x00000000)  returns 0x00 (0000ms, 0870ms total)
T0418 001:625 JLINK_WriteReg(R5, 0x00000000)  returns 0x00 (0000ms, 0870ms total)
T0418 001:625 JLINK_WriteReg(R6, 0x00000000)  returns 0x00 (0000ms, 0870ms total)
T0418 001:625 JLINK_WriteReg(R7, 0x00000000)  returns 0x00 (0000ms, 0870ms total)
T0418 001:625 JLINK_WriteReg(R8, 0x00000000)  returns 0x00 (0000ms, 0870ms total)
T0418 001:625 JLINK_WriteReg(R9, 0x20000160)  returns 0x00 (0000ms, 0870ms total)
T0418 001:625 JLINK_WriteReg(R10, 0x00000000)  returns 0x00 (0000ms, 0870ms total)
T0418 001:625 JLINK_WriteReg(R11, 0x00000000)  returns 0x00 (0000ms, 0870ms total)
T0418 001:625 JLINK_WriteReg(R12, 0x00000000)  returns 0x00 (0000ms, 0870ms total)
T0418 001:625 JLINK_WriteReg(R13 (SP), 0x20000800)  returns 0x00 (0000ms, 0870ms total)
T0418 001:625 JLINK_WriteReg(R14, 0x20000001)  returns 0x00 (0000ms, 0870ms total)
T0418 001:625 JLINK_WriteReg(R15 (PC), 0x200000F4)  returns 0x00 (0000ms, 0870ms total)
T0418 001:625 JLINK_WriteReg(XPSR, 0x01000000)  returns 0x00 (0000ms, 0870ms total)
T0418 001:625 JLINK_WriteReg(MSP, 0x20000800)  returns 0x00 (0000ms, 0870ms total)
T0418 001:625 JLINK_WriteReg(PSP, 0x20000800)  returns 0x00 (0000ms, 0870ms total)
T0418 001:625 JLINK_WriteReg(CFBP, 0x00000000)  returns 0x00 (0000ms, 0870ms total)
T0418 001:625 JLINK_SetBPEx(Addr = 0x20000000, Type = 0xFFFFFFF2)  returns 0x0000000F (0000ms, 0870ms total)
T0418 001:625 JLINK_Go() -- CPU_ReadMem(4 bytes @ 0xE0001000) (0003ms, 0873ms total)
